! Created Wed May  8 14:32:35 2024
# hz S ma R 50
! 4 Port Network Data from SP1.SP block
! freq  magS11  angS11  magS12  angS12  magS13  angS13  magS14  angS14  
!       magS21  angS21  magS22  angS22  magS23  angS23  magS24  angS24  
!       magS31  angS31  magS32  angS32  magS33  angS33  magS34  angS34  
!       magS41  angS41  magS42  angS42  magS43  angS43  magS44  angS44  
!     
3e+09    4.47180697e-07        -40.2926471        0.965508756        -127.423102        0.260370585        -37.4231018     1.46278775e-07         87.1537964
                      0.965508756        -127.423102     4.47180698e-07        -40.2926471     1.46278775e-07         87.1537964        0.260370585        -37.4231018
                      0.260370585        -37.4231018     1.46278775e-07         87.1537964     4.47180697e-07        -40.2926471        0.965508756        -127.423102
                   1.46278775e-07         87.1537964        0.260370585        -37.4231018        0.965508756        -127.423102     4.47180698e-07        -40.2926471

3.01e+09    4.47989102e-07        -40.7035885        0.965359544        -127.839948        0.260923266        -37.8399483     1.46566622e-07         86.5601033
                      0.965359544        -127.839948     4.47989102e-07        -40.7035885     1.46566622e-07         86.5601033        0.260923266        -37.8399483
                      0.260923266        -37.8399483     1.46566622e-07         86.5601033     4.47989102e-07        -40.7035886        0.965359544        -127.839948
                   1.46566622e-07         86.5601033        0.260923266        -37.8399483        0.965359544        -127.839948     4.47989102e-07        -40.7035886

3.02e+09    4.48792689e-07        -41.1143625        0.965210712         -128.25674        0.261473291        -38.2567402     1.46852939e-07         85.9665196
                      0.965210712         -128.25674     4.48792689e-07        -41.1143625     1.46852939e-07         85.9665196        0.261473291        -38.2567402
                      0.261473291        -38.2567402     1.46852939e-07         85.9665196     4.48792689e-07        -41.1143625        0.965210712         -128.25674
                   1.46852939e-07         85.9665196        0.261473291        -38.2567402        0.965210712         -128.25674      4.4879269e-07        -41.1143626

3.03e+09    4.49591467e-07        -41.5249694        0.965062265        -128.673478        0.262020658        -38.6734777     1.47137728e-07         85.3730446
                      0.965062265        -128.673478     4.49591467e-07        -41.5249693     1.47137728e-07         85.3730446        0.262020658        -38.6734777
                      0.262020658        -38.6734777     1.47137728e-07         85.3730446     4.49591467e-07        -41.5249694        0.965062265        -128.673478
                   1.47137728e-07         85.3730446        0.262020658        -38.6734777        0.965062265        -128.673478     4.49591467e-07        -41.5249694

3.04e+09    4.50385443e-07        -41.9354095        0.964914208        -129.090161        0.262565365        -39.0901609     1.47420988e-07         84.7796783
                      0.964914208        -129.090161     4.50385442e-07        -41.9354095     1.47420988e-07         84.7796783        0.262565365        -39.0901609
                      0.262565365        -39.0901609     1.47420988e-07         84.7796783     4.50385442e-07        -41.9354094        0.964914208        -129.090161
                   1.47420988e-07         84.7796783        0.262565365        -39.0901609        0.964914208        -129.090161     4.50385443e-07        -41.9354094

3.05e+09    4.51174622e-07        -42.3456832        0.964766547         -129.50679         0.26310741        -39.5067899      1.4770272e-07         84.1864202
                      0.964766547         -129.50679     4.51174622e-07        -42.3456832      1.4770272e-07         84.1864202         0.26310741        -39.5067899
                       0.26310741        -39.5067899      1.4770272e-07         84.1864202     4.51174622e-07        -42.3456832        0.964766547         -129.50679
                    1.4770272e-07         84.1864202         0.26310741        -39.5067899        0.964766547         -129.50679     4.51174623e-07        -42.3456832

3.06e+09    4.51959016e-07        -42.7557909        0.964619288        -129.923365         0.26364679         -39.923365     1.47982925e-07         83.5932701
                      0.964619288        -129.923365     4.51959015e-07        -42.7557909     1.47982925e-07         83.5932701         0.26364679         -39.923365
                       0.26364679         -39.923365     1.47982925e-07         83.5932701     4.51959016e-07         -42.755791        0.964619288        -129.923365
                   1.47982925e-07           83.59327         0.26364679         -39.923365        0.964619288        -129.923365     4.51959015e-07         -42.755791

3.07e+09     4.5273863e-07        -43.1657333        0.964472435        -130.339886        0.264183502        -40.3398862     1.48261602e-07         83.0002276
                      0.964472435        -130.339886     4.52738629e-07        -43.1657332     1.48261602e-07         83.0002276        0.264183502        -40.3398862
                      0.264183502        -40.3398862     1.48261602e-07         83.0002276      4.5273863e-07        -43.1657332        0.964472435        -130.339886
                   1.48261602e-07         83.0002276        0.264183502        -40.3398862        0.964472435        -130.339886     4.52738629e-07        -43.1657332

3.08e+09    4.53513472e-07        -43.5755104        0.964325993        -130.756354        0.264717545        -40.7563537     1.48538754e-07         82.4072925
                      0.964325993        -130.756354     4.53513471e-07        -43.5755103     1.48538754e-07         82.4072926        0.264717545        -40.7563537
                      0.264717545        -40.7563537     1.48538754e-07         82.4072926     4.53513471e-07        -43.5755104        0.964325993        -130.756354
                   1.48538754e-07         82.4072926        0.264717545        -40.7563537        0.964325993        -130.756354     4.53513471e-07        -43.5755104

3.09e+09     4.5428355e-07        -43.9851228        0.964179969        -131.172768        0.265248916        -41.1727678      1.4881438e-07         81.8144644
                      0.964179969        -131.172768     4.54283549e-07        -43.9851228      1.4881438e-07         81.8144644        0.265248916        -41.1727678
                      0.265248916        -41.1727678      1.4881438e-07         81.8144644     4.54283549e-07        -43.9851228        0.964179969        -131.172768
                    1.4881438e-07         81.8144644        0.265248916        -41.1727678        0.964179969        -131.172768     4.54283549e-07        -43.9851228

3.1e+09    4.55048871e-07        -44.3945709        0.964034367        -131.589128        0.265777612        -41.5891284     1.49088481e-07         81.2217431
                      0.964034367        -131.589128     4.55048871e-07        -44.3945709     1.49088481e-07         81.2217431        0.265777612        -41.5891284
                      0.265777612        -41.5891284     1.49088481e-07         81.2217431     4.55048871e-07        -44.3945709        0.964034367        -131.589128
                   1.49088481e-07         81.2217431        0.265777612        -41.5891284        0.964034367        -131.589128     4.55048872e-07        -44.3945709

3.11e+09    4.55809444e-07        -44.8038553        0.963889192        -132.005436        0.266303632        -42.0054359     1.49361057e-07         80.6291281
                      0.963889192        -132.005436     4.55809444e-07        -44.8038553     1.49361057e-07         80.6291281        0.266303632        -42.0054359
                      0.266303632        -42.0054359     1.49361057e-07         80.6291281     4.55809444e-07        -44.8038552        0.963889192        -132.005436
                   1.49361057e-07         80.6291281        0.266303632        -42.0054359        0.963889192        -132.005436     4.55809444e-07        -44.8038552

3.12e+09    4.56565278e-07        -45.2129761        0.963744451         -132.42169        0.266826974        -42.4216904      1.4963211e-07         80.0366192
                      0.963744451         -132.42169     4.56565278e-07        -45.2129761      1.4963211e-07         80.0366191        0.266826974        -42.4216904
                      0.266826974        -42.4216904      1.4963211e-07         80.0366191     4.56565278e-07        -45.2129761        0.963744451         -132.42169
                    1.4963211e-07         80.0366191        0.266826974        -42.4216904        0.963744451         -132.42169     4.56565278e-07        -45.2129761

3.13e+09    4.57316378e-07         -45.621934        0.963600146        -132.837892        0.267347635         -42.837892     1.49901639e-07         79.4442159
                      0.963600146        -132.837892     4.57316379e-07         -45.621934     1.49901639e-07         79.4442159        0.267347635         -42.837892
                      0.267347635         -42.837892     1.49901639e-07         79.4442159     4.57316378e-07         -45.621934        0.963600146        -132.837892
                   1.49901639e-07         79.4442159        0.267347635         -42.837892        0.963600146        -132.837892     4.57316378e-07         -45.621934

3.14e+09    4.58062754e-07        -46.0307294        0.963456285        -133.254041        0.267865613         -43.254041     1.50169646e-07         78.8519181
                      0.963456285        -133.254041     4.58062754e-07        -46.0307294     1.50169646e-07         78.8519181        0.267865613         -43.254041
                      0.267865613         -43.254041     1.50169646e-07         78.8519181     4.58062754e-07        -46.0307294        0.963456285        -133.254041
                   1.50169646e-07         78.8519181        0.267865613         -43.254041        0.963456285        -133.254041     4.58062754e-07        -46.0307294

3.15e+09    4.58804414e-07        -46.4393628        0.963312872        -133.670137        0.268380905        -43.6701374     1.50436131e-07         78.2597252
                      0.963312872        -133.670137     4.58804415e-07        -46.4393628     1.50436131e-07         78.2597252        0.268380905        -43.6701374
                      0.268380905        -43.6701374     1.50436131e-07         78.2597252     4.58804415e-07        -46.4393628        0.963312872        -133.670137
                   1.50436131e-07         78.2597252        0.268380905        -43.6701374        0.963312872        -133.670137     4.58804415e-07        -46.4393628

3.16e+09    4.59541367e-07        -46.8478345        0.963169912        -134.086181        0.268893511        -44.0861815     1.50701094e-07         77.6676371
                      0.963169912        -134.086181     4.59541367e-07        -46.8478345     1.50701094e-07         77.6676371        0.268893511        -44.0861815
                      0.268893511        -44.0861815     1.50701094e-07          77.667637     4.59541367e-07        -46.8478345        0.963169912        -134.086181
                   1.50701094e-07          77.667637        0.268893511        -44.0861815        0.963169912        -134.086181     4.59541367e-07        -46.8478345

3.17e+09    4.60273619e-07        -47.2561452        0.963027411        -134.502173        0.269403427        -44.5021734     1.50964538e-07         77.0756532
                      0.963027411        -134.502173     4.60273619e-07        -47.2561452     1.50964538e-07         77.0756532        0.269403427        -44.5021734
                      0.269403427        -44.5021734     1.50964538e-07         77.0756532     4.60273619e-07        -47.2561452        0.963027411        -134.502173
                   1.50964538e-07         77.0756532        0.269403427        -44.5021734        0.963027411        -134.502173     4.60273619e-07        -47.2561452

3.18e+09     4.6100118e-07        -47.6642952        0.962885372        -134.918113        0.269910652        -44.9181133     1.51226462e-07         76.4837734
                      0.962885372        -134.918113      4.6100118e-07        -47.6642952     1.51226462e-07         76.4837734        0.269910652        -44.9181133
                      0.269910652        -44.9181133     1.51226462e-07         76.4837734      4.6100118e-07        -47.6642952        0.962885372        -134.918113
                   1.51226462e-07         76.4837734        0.269910652        -44.9181133        0.962885372        -134.918113      4.6100118e-07        -47.6642952

3.19e+09    4.61724057e-07         -48.072285        0.962743802        -135.334001        0.270415184        -45.3340014     1.51486867e-07         75.8919972
                      0.962743802        -135.334001     4.61724057e-07         -48.072285     1.51486866e-07         75.8919971        0.270415184        -45.3340014
                      0.270415184        -45.3340014     1.51486866e-07         75.8919971     4.61724057e-07         -48.072285        0.962743802        -135.334001
                   1.51486867e-07         75.8919971        0.270415184        -45.3340014        0.962743802        -135.334001     4.61724057e-07         -48.072285

3.2e+09    4.62442259e-07        -48.4801151        0.962602705        -135.749838         0.27091702        -45.7498379     1.51745753e-07         75.3003243
                      0.962602705        -135.749838     4.62442259e-07        -48.4801152     1.51745753e-07         75.3003243         0.27091702        -45.7498379
                       0.27091702        -45.7498379     1.51745753e-07         75.3003243     4.62442259e-07        -48.4801151        0.962602705        -135.749838
                   1.51745753e-07         75.3003243         0.27091702        -45.7498379        0.962602705        -135.749838     4.62442259e-07        -48.4801151

3.21e+09    4.63155794e-07        -48.8877861        0.962462087        -136.165623        0.271416159        -46.1656229     1.52003122e-07         74.7087542
                      0.962462087        -136.165623     4.63155794e-07        -48.8877861     1.52003122e-07         74.7087542        0.271416159        -46.1656229
                      0.271416159        -46.1656229     1.52003122e-07         74.7087542     4.63155794e-07        -48.8877861        0.962462087        -136.165623
                   1.52003122e-07         74.7087542        0.271416159        -46.1656229        0.962462087        -136.165623     4.63155794e-07        -48.8877861

3.22e+09    4.63864671e-07        -49.2952984        0.962321952        -136.581357        0.271912598        -46.5813566     1.52258974e-07         74.1172867
                      0.962321952        -136.581357     4.63864671e-07        -49.2952984     1.52258974e-07         74.1172867        0.271912598        -46.5813566
                      0.271912598        -46.5813566     1.52258974e-07         74.1172867     4.63864671e-07        -49.2952984        0.962321952        -136.581357
                   1.52258974e-07         74.1172867        0.271912598        -46.5813566        0.962321952        -136.581357     4.63864671e-07        -49.2952984

3.23e+09    4.64568898e-07        -49.7026525        0.962182305        -136.997039        0.272406337        -46.9970393     1.52513311e-07         73.5259214
                      0.962182305        -136.997039     4.64568898e-07        -49.7026525     1.52513311e-07         73.5259214        0.272406337        -46.9970393
                      0.272406337        -46.9970393     1.52513311e-07         73.5259214     4.64568898e-07        -49.7026525        0.962182305        -136.997039
                   1.52513311e-07         73.5259214        0.272406337        -46.9970393        0.962182305        -136.997039     4.64568898e-07        -49.7026525

3.24e+09    4.65268483e-07         -50.109849        0.962043151        -137.412671        0.272897373        -47.4126711     1.52766132e-07         72.9346579
                      0.962043151        -137.412671     4.65268483e-07        -50.1098489     1.52766132e-07         72.9346579        0.272897373        -47.4126711
                      0.272897373        -47.4126711     1.52766132e-07         72.9346579     4.65268483e-07        -50.1098489        0.962043151        -137.412671
                   1.52766132e-07         72.9346579        0.272897373        -47.4126711        0.962043151        -137.412671     4.65268483e-07         -50.109849

3.25e+09    4.65963435e-07        -50.5168882        0.961904495        -137.828252        0.273385703        -47.8282521      1.5301744e-07         72.3434957
                      0.961904495        -137.828252     4.65963435e-07        -50.5168882      1.5301744e-07         72.3434957        0.273385703        -47.8282521
                      0.273385703        -47.8282521      1.5301744e-07         72.3434957     4.65963436e-07        -50.5168882        0.961904495        -137.828252
                    1.5301744e-07         72.3434957        0.273385703        -47.8282521        0.961904495        -137.828252     4.65963435e-07        -50.5168882

3.26e+09    4.66653763e-07        -50.9237709        0.961766342        -138.243783        0.273871327        -48.2437827     1.53267233e-07         71.7524347
                      0.961766342        -138.243783     4.66653763e-07        -50.9237709     1.53267233e-07         71.7524347        0.273871327        -48.2437827
                      0.273871327        -48.2437827     1.53267233e-07         71.7524347     4.66653763e-07        -50.9237709        0.961766342        -138.243783
                   1.53267233e-07         71.7524347        0.273871327        -48.2437827        0.961766342        -138.243783     4.66653764e-07        -50.9237709

3.27e+09    4.67339475e-07        -51.3304974        0.961628696        -138.659263        0.274354242        -48.6592629     1.53515514e-07         71.1614743
                      0.961628696        -138.659263     4.67339475e-07        -51.3304974     1.53515514e-07         71.1614743        0.274354242        -48.6592629
                      0.274354242        -48.6592629     1.53515514e-07         71.1614743     4.67339476e-07        -51.3304974        0.961628696        -138.659263
                   1.53515514e-07         71.1614742        0.274354242        -48.6592629        0.961628696        -138.659263     4.67339475e-07        -51.3304974

3.28e+09     4.6802058e-07        -51.7370684        0.961491564        -139.074693        0.274834447        -49.0746929     1.53762284e-07         70.5706141
                      0.961491564        -139.074693      4.6802058e-07        -51.7370684     1.53762284e-07         70.5706141        0.274834447        -49.0746929
                      0.274834447        -49.0746929     1.53762284e-07         70.5706141      4.6802058e-07        -51.7370684        0.961491564        -139.074693
                   1.53762284e-07         70.5706141        0.274834447        -49.0746929        0.961491564        -139.074693      4.6802058e-07        -51.7370684

3.29e+09    4.68697086e-07        -52.1434844        0.961354948        -139.490073         0.27531194        -49.4900731     1.54007542e-07         69.9798539
