! Created Wed May  8 15:04:03 2024
# hz S ma R 50
! 4 Port Network Data from SP1.SP block
! freq  magS11  angS11  magS12  angS12  magS13  angS13  magS14  angS14  
!       magS21  angS21  magS22  angS22  magS23  angS23  magS24  angS24  
!       magS31  angS31  magS32  angS32  magS33  angS33  magS34  angS34  
!       magS41  angS41  magS42  angS42  magS43  angS43  magS44  angS44  
!     
3e+09      0.0185497515        -98.7181077        0.961770553        -126.012746        0.250268617        -36.1676885       0.0640865596         142.057488
                      0.961770553        -126.012746       0.0185497515        -98.7181077       0.0640865596         142.057488        0.250268617        -36.1676885
                      0.250268617        -36.1676885       0.0640865596         142.057488       0.0185497515        -98.7181077        0.961770553        -126.012746
                     0.0640865596         142.057488        0.250268617        -36.1676885        0.961770553        -126.012746       0.0185497515        -98.7181077

3.01e+09      0.0186547802        -99.1666756        0.961596824        -126.432135        0.250830256        -36.5877793       0.0643023375         141.629796
                      0.961596824        -126.432135       0.0186547802        -99.1666756       0.0643023375         141.629796        0.250830256        -36.5877793
                      0.250830256        -36.5877793       0.0643023375         141.629796       0.0186547802        -99.1666756        0.961596824        -126.432135
                     0.0643023375         141.629796        0.250830256        -36.5877793        0.961596824        -126.432135       0.0186547802        -99.1666756

3.02e+09       0.018759752        -99.6159947        0.961423329         -126.85152        0.251389457        -37.0078621        0.064517966         141.202209
                      0.961423329         -126.85152        0.018759752        -99.6159947        0.064517966         141.202209        0.251389457        -37.0078621
                      0.251389457        -37.0078621        0.064517966         141.202209        0.018759752        -99.6159947        0.961423329         -126.85152
                      0.064517966         141.202209        0.251389457        -37.0078621        0.961423329         -126.85152        0.018759752        -99.6159947

3.03e+09      0.0188646617         -100.06607        0.961250074          -127.2709        0.251946216        -37.4279369       0.0647334444          140.77473
                      0.961250074          -127.2709       0.0188646617         -100.06607       0.0647334444          140.77473        0.251946216        -37.4279369
                      0.251946216        -37.4279369       0.0647334444          140.77473       0.0188646617         -100.06607        0.961250074          -127.2709
                     0.0647334444          140.77473        0.251946216        -37.4279369        0.961250074          -127.2709       0.0188646617         -100.06607

3.04e+09      0.0189695037        -100.516908        0.961077066        -127.690277        0.252500529        -37.8480035       0.0649487721          140.34736
                      0.961077066        -127.690277       0.0189695037        -100.516908       0.0649487721          140.34736        0.252500529        -37.8480035
                      0.252500529        -37.8480035       0.0649487721          140.34736       0.0189695037        -100.516908        0.961077066        -127.690277
                     0.0649487721          140.34736        0.252500529        -37.8480035        0.961077066        -127.690277       0.0189695037        -100.516908

3.05e+09      0.0190742729        -100.968514        0.960904309         -128.10965        0.253052393         -38.268062       0.0651639483           139.9201
                      0.960904309         -128.10965       0.0190742729        -100.968514       0.0651639483           139.9201        0.253052393         -38.268062
                      0.253052393         -38.268062       0.0651639483           139.9201       0.0190742729        -100.968514        0.960904309         -128.10965
                     0.0651639483           139.9201        0.253052393         -38.268062        0.960904309         -128.10965       0.0190742729        -100.968514

3.06e+09      0.0191789639        -101.420892         0.96073181        -128.529019        0.253601801        -38.6881125       0.0653789727         139.492952
                       0.96073181        -128.529019       0.0191789639        -101.420892       0.0653789727         139.492952        0.253601801        -38.6881125
                      0.253601801        -38.6881125       0.0653789727         139.492952       0.0191789639        -101.420892         0.96073181        -128.529019
                     0.0653789727         139.492952        0.253601801        -38.6881125         0.96073181        -128.529019       0.0191789639        -101.420892

3.07e+09      0.0192835713        -101.874048        0.960559574        -128.948386        0.254148752        -39.1081548       0.0655938445         139.065918
                      0.960559574        -128.948386       0.0192835713        -101.874048       0.0655938445         139.065918        0.254148752        -39.1081548
                      0.254148752        -39.1081548       0.0655938445         139.065918       0.0192835713        -101.874048        0.960559574        -128.948386
                     0.0655938445         139.065918        0.254148752        -39.1081548        0.960559574        -128.948386       0.0192835713        -101.874048

3.08e+09        0.01938809        -102.327989        0.960387606        -129.367748        0.254693239        -39.5281889       0.0658085634         138.638999
                      0.960387606        -129.367748         0.01938809        -102.327989       0.0658085634         138.638999        0.254693239        -39.5281889
                      0.254693239        -39.5281889       0.0658085634         138.638999         0.01938809        -102.327989        0.960387606        -129.367748
                     0.0658085634         138.638999        0.254693239        -39.5281889        0.960387606        -129.367748         0.01938809        -102.327989

3.09e+09      0.0194925146        -102.782718        0.960215913        -129.787108        0.255235261        -39.9482149       0.0660231289         138.212197
                      0.960215913        -129.787108       0.0194925146        -102.782718       0.0660231289         138.212197        0.255235261        -39.9482149
                      0.255235261        -39.9482149       0.0660231289         138.212197       0.0194925146        -102.782718        0.960215913        -129.787108
                     0.0660231289         138.212197        0.255235261        -39.9482149        0.960215913        -129.787108       0.0194925146        -102.782718

3.1e+09      0.0195968399        -103.238242          0.9600445        -130.206465        0.255774811        -40.3682327       0.0662375404         137.785513
                        0.9600445        -130.206465       0.0195968399        -103.238242       0.0662375404         137.785513        0.255774811        -40.3682327
                      0.255774811        -40.3682327       0.0662375404         137.785513       0.0195968399        -103.238242          0.9600445        -130.206465
                     0.0662375404         137.785513        0.255774811        -40.3682327          0.9600445        -130.206465       0.0195968399        -103.238242

3.11e+09      0.0197010608        -103.694566        0.959873373        -130.625819        0.256311887        -40.7882424       0.0664517978         137.358948
                      0.959873373        -130.625819       0.0197010608        -103.694566       0.0664517978         137.358948        0.256311887        -40.7882424
                      0.256311887        -40.7882424       0.0664517978         137.358948       0.0197010608        -103.694566        0.959873373        -130.625819
                     0.0664517978         137.358948        0.256311887        -40.7882424        0.959873373        -130.625819       0.0197010608        -103.694566

3.12e+09       0.019805172        -104.151695        0.959702537         -131.04517        0.256846484        -41.2082439       0.0666659005         136.932505
                      0.959702537         -131.04517        0.019805172        -104.151695       0.0666659005         136.932505        0.256846484        -41.2082439
                      0.256846484        -41.2082439       0.0666659005         136.932505        0.019805172        -104.151695        0.959702537         -131.04517
                     0.0666659005         136.932505        0.256846484        -41.2082439        0.959702537         -131.04517        0.019805172        -104.151695

3.13e+09      0.0199091683        -104.609636        0.959531998        -131.464519        0.257378599        -41.6282372       0.0668798484         136.506185
                      0.959531998        -131.464519       0.0199091683        -104.609636       0.0668798484         136.506185        0.257378599        -41.6282372
                      0.257378599        -41.6282372       0.0668798484         136.506185       0.0199091683        -104.609636        0.959531998        -131.464519
                     0.0668798484         136.506185        0.257378599        -41.6282372        0.959531998        -131.464519       0.0199091683        -104.609636

3.14e+09      0.0200130448        -105.068392        0.959361762        -131.883865        0.257908227        -42.0482223       0.0670936411         136.079989
                      0.959361762        -131.883865       0.0200130448        -105.068392       0.0670936411         136.079989        0.257908227        -42.0482223
                      0.257908227        -42.0482223       0.0670936411         136.079989       0.0200130448        -105.068392        0.959361762        -131.883865
                     0.0670936411         136.079989        0.257908227        -42.0482223        0.959361762        -131.883865       0.0200130448        -105.068392

3.15e+09      0.0201167961        -105.527969        0.959191833         -132.30321        0.258435365        -42.4681992       0.0673072784         135.653919
                      0.959191833         -132.30321       0.0201167961        -105.527969       0.0673072784         135.653919        0.258435365        -42.4681992
                      0.258435365        -42.4681992       0.0673072784         135.653919       0.0201167961        -105.527969        0.959191833         -132.30321
                     0.0673072784         135.653919        0.258435365        -42.4681992        0.959191833         -132.30321       0.0201167961        -105.527969

3.16e+09      0.0202204174        -105.988374        0.959022218        -132.722552        0.258960008        -42.8881679       0.0675207602         135.227976
                      0.959022218        -132.722552       0.0202204174        -105.988374       0.0675207602         135.227976        0.258960008        -42.8881679
                      0.258960008        -42.8881679       0.0675207602         135.227976       0.0202204174        -105.988374        0.959022218        -132.722552
                     0.0675207602         135.227976        0.258960008        -42.8881679        0.959022218        -132.722552       0.0202204174        -105.988374

3.17e+09      0.0203239035        -106.449611        0.958852922        -133.141892        0.259482153        -43.3081284       0.0677340863         134.802162
                      0.958852922        -133.141892       0.0203239035        -106.449611       0.0677340863         134.802162        0.259482153        -43.3081284
                      0.259482153        -43.3081284       0.0677340863         134.802162       0.0203239035        -106.449611        0.958852922        -133.141892
                     0.0677340863         134.802162        0.259482153        -43.3081284        0.958852922        -133.141892       0.0203239035        -106.449611

3.18e+09      0.0204272494        -106.911686        0.958683951        -133.561231        0.260001796        -43.7280808       0.0679472566         134.376479
                      0.958683951        -133.561231       0.0204272494        -106.911686       0.0679472566         134.376479        0.260001796        -43.7280808
                      0.260001796        -43.7280808       0.0679472566         134.376479       0.0204272494        -106.911686        0.958683951        -133.561231
                     0.0679472566         134.376479        0.260001796        -43.7280808        0.958683951        -133.561231       0.0204272494        -106.911686

3.19e+09      0.0205304502        -107.374604         0.95851531        -133.980569        0.260518934        -44.1480249       0.0681602711         133.950927
                       0.95851531        -133.980569       0.0205304502        -107.374604       0.0681602711         133.950927        0.260518934        -44.1480249
                      0.260518934        -44.1480249       0.0681602711         133.950927       0.0205304502        -107.374604         0.95851531        -133.980569
                     0.0681602711         133.950927        0.260518934        -44.1480249         0.95851531        -133.980569       0.0205304502        -107.374604

3.2e+09       0.020633501         -107.83837        0.958347005        -134.399905        0.261033562        -44.5679608       0.0683731297         133.525509
                      0.958347005        -134.399905        0.020633501         -107.83837       0.0683731297         133.525509        0.261033562        -44.5679608
                      0.261033562        -44.5679608       0.0683731297         133.525509        0.020633501         -107.83837        0.958347005        -134.399905
                     0.0683731297         133.525509        0.261033562        -44.5679608        0.958347005        -134.399905        0.020633501         -107.83837

3.21e+09      0.0207363968        -108.302991        0.958179041         -134.81924        0.261545676        -44.9878886       0.0685858325         133.100225
                      0.958179041         -134.81924       0.0207363968        -108.302991       0.0685858325         133.100225        0.261545676        -44.9878886
                      0.261545676        -44.9878886       0.0685858325         133.100225       0.0207363968        -108.302991        0.958179041         -134.81924
                     0.0685858325         133.100225        0.261545676        -44.9878886        0.958179041         -134.81924       0.0207363968        -108.302991

3.22e+09      0.0208391329        -108.768471        0.958011423        -135.238574        0.262055274        -45.4078081       0.0687983796         132.675078
                      0.958011423        -135.238574       0.0208391329        -108.768471       0.0687983796         132.675078        0.262055274        -45.4078081
                      0.262055274        -45.4078081       0.0687983796         132.675078       0.0208391329        -108.768471        0.958011423        -135.238574
                     0.0687983796         132.675078        0.262055274        -45.4078081        0.958011423        -135.238574       0.0208391329        -108.768471

3.23e+09      0.0209417042        -109.234816        0.957844158        -135.657907         0.26256235        -45.8277195        0.069010771         132.250068
                      0.957844158        -135.657907       0.0209417042        -109.234816        0.069010771         132.250068         0.26256235        -45.8277195
                       0.26256235        -45.8277195        0.069010771         132.250068       0.0209417042        -109.234816        0.957844158        -135.657907
                      0.069010771         132.250068         0.26256235        -45.8277195        0.957844158        -135.657907       0.0209417042        -109.234816

3.24e+09      0.0210441062        -109.702031        0.957677249         -136.07724        0.263066903        -46.2476227       0.0692230069         131.825198
                      0.957677249         -136.07724       0.0210441062        -109.702031       0.0692230069         131.825198        0.263066903        -46.2476227
                      0.263066903        -46.2476227       0.0692230069         131.825198       0.0210441062        -109.702031        0.957677249         -136.07724
                     0.0692230069         131.825198        0.263066903        -46.2476227        0.957677249         -136.07724       0.0210441062        -109.702031

3.25e+09      0.0211463341        -110.170122        0.957510704        -136.496572        0.263568927        -46.6675178       0.0694350876         131.400468
                      0.957510704        -136.496572       0.0211463341        -110.170122       0.0694350876         131.400468        0.263568927        -46.6675178
                      0.263568927        -46.6675178       0.0694350876         131.400468       0.0211463341        -110.170122        0.957510704        -136.496572
                     0.0694350876         131.400468        0.263568927        -46.6675178        0.957510704        -136.496572       0.0211463341        -110.170122

3.26e+09      0.0212483831        -110.639095        0.957344527        -136.915904        0.264068419        -47.0874047       0.0696470133          130.97588
                      0.957344527        -136.915904       0.0212483831        -110.639095       0.0696470133          130.97588        0.264068419        -47.0874047
                      0.264068419        -47.0874047       0.0696470133          130.97588       0.0212483831        -110.639095        0.957344527        -136.915904
                     0.0696470133          130.97588        0.264068419        -47.0874047        0.957344527        -136.915904       0.0212483831        -110.639095

3.27e+09      0.0213502486        -111.108954        0.957178723        -137.335236        0.264565376        -47.5072834       0.0698587843         130.551436
                      0.957178723        -137.335236       0.0213502486        -111.108954       0.0698587843         130.551436        0.264565376        -47.5072834
                      0.264565376        -47.5072834       0.0698587843         130.551436       0.0213502486        -111.108954        0.957178723        -137.335236
                     0.0698587843         130.551436        0.264565376        -47.5072834        0.957178723        -137.335236       0.0213502486        -111.108954

3.28e+09       0.021451926        -111.579705        0.957013299        -137.754569        0.265059794        -47.9271541       0.0700704008         130.127137
                      0.957013299        -137.754569        0.021451926        -111.579705       0.0700704008         130.127137        0.265059794        -47.9271541
                      0.265059794        -47.9271541       0.0700704008         130.127137        0.021451926        -111.579705        0.957013299        -137.754569
                     0.0700704008         130.127137        0.265059794        -47.9271541        0.957013299        -137.754569        0.021451926        -111.579705

3.29e+09      0.0215534108        -112.051355        0.956848258        -138.173901         0.26555167        -48.3470166       0.0702818634         129.702984
