! Created Wed May  8 15:51:58 2024
# hz S ma R 50
! 4 Port Network Data from SP1.SP block
! freq  magS11  angS11  magS12  angS12  magS13  angS13  magS14  angS14  
!       magS21  angS21  magS22  angS22  magS23  angS23  magS24  angS24  
!       magS31  angS31  magS32  angS32  magS33  angS33  magS34  angS34  
!       magS41  angS41  magS42  angS42  magS43  angS43  magS44  angS44  
!     
3e+09       0.053899046        -71.4151831        0.963098255        -151.047502        0.244646099         -61.596077       0.0409542343         99.8816922
                      0.963098255        -151.047502        0.053899046        -71.4151831       0.0409542343         99.8816922        0.244646099         -61.596077
                      0.244646099         -61.596077       0.0409542343         99.8816922        0.053899046        -71.4151831        0.963098255        -151.047502
                     0.0409542343         99.8816922        0.244646099         -61.596077        0.963098255        -151.047502        0.053899046        -71.4151831

3.01e+09      0.0536997727        -71.9930395        0.962961909        -151.550737        0.245177127        -62.0965922       0.0409812707         99.4236034
                      0.962961909        -151.550737       0.0536997727        -71.9930395       0.0409812707         99.4236034        0.245177127        -62.0965922
                      0.245177127        -62.0965922       0.0409812707         99.4236034       0.0536997727        -71.9930395        0.962961909        -151.550737
                     0.0409812707         99.4236034        0.245177127        -62.0965922        0.962961909        -151.550737       0.0536997727        -71.9930395

3.02e+09      0.0534970818         -72.572048        0.962826038         -152.05399        0.245705781        -62.5970964       0.0410076523         98.9670033
                      0.962826038         -152.05399       0.0534970818         -72.572048       0.0410076523         98.9670033        0.245705781        -62.5970964
                      0.245705781        -62.5970964       0.0410076523         98.9670033       0.0534970818         -72.572048        0.962826038         -152.05399
                     0.0410076523         98.9670033        0.245705781        -62.5970964        0.962826038         -152.05399       0.0534970818         -72.572048

3.03e+09      0.0532909697        -73.1522395        0.962690647        -152.557264        0.246232055          -63.09759       0.0410333886         98.5119042
                      0.962690647        -152.557264       0.0532909697        -73.1522395       0.0410333886         98.5119042        0.246232055          -63.09759
                      0.246232055          -63.09759       0.0410333886         98.5119042       0.0532909697        -73.1522395        0.962690647        -152.557264
                     0.0410333886         98.5119042        0.246232055          -63.09759        0.962690647        -152.557264       0.0532909697        -73.1522395

3.04e+09      0.0530814327        -73.7336456        0.962555737        -153.060557        0.246755947        -63.5980734       0.0410584892         98.0583188
                      0.962555737        -153.060557       0.0530814327        -73.7336456       0.0410584892         98.0583188        0.246755947        -63.5980734
                      0.246755947        -63.5980734       0.0410584892         98.0583188       0.0530814327        -73.7336456        0.962555737        -153.060557
                     0.0410584892         98.0583188        0.246755947        -63.5980734        0.962555737        -153.060557       0.0530814327        -73.7336456

3.05e+09      0.0528684674        -74.3162991        0.962421311         -153.56387        0.247277453        -64.0985472        0.041082964         97.6062597
                      0.962421311         -153.56387       0.0528684674        -74.3162991        0.041082964         97.6062597        0.247277453        -64.0985472
                      0.247277453        -64.0985472        0.041082964         97.6062597       0.0528684674        -74.3162991        0.962421311         -153.56387
                      0.041082964         97.6062597        0.247277453        -64.0985472        0.962421311         -153.56387       0.0528684674        -74.3162991

3.06e+09      0.0526520709        -74.9002339        0.962287372        -154.067204        0.247796568        -64.5990117       0.0411068231         97.1557394
                      0.962287372        -154.067204       0.0526520709        -74.9002339       0.0411068231         97.1557394        0.247796568        -64.5990117
                      0.247796568        -64.5990117       0.0411068231         97.1557394       0.0526520709        -74.9002339        0.962287372        -154.067204
                     0.0411068231         97.1557394        0.247796568        -64.5990117        0.962287372        -154.067204       0.0526520709        -74.9002339

3.07e+09        0.05243224        -75.4854847        0.962153922         -154.57056        0.248313288        -65.0994676       0.0411300768         96.7067705
                      0.962153922         -154.57056         0.05243224        -75.4854847       0.0411300768         96.7067705        0.248313288        -65.0994676
                      0.248313288        -65.0994676       0.0411300768         96.7067705         0.05243224        -75.4854847        0.962153922         -154.57056
                     0.0411300768         96.7067705        0.248313288        -65.0994676        0.962153922         -154.57056         0.05243224        -75.4854847

3.08e+09      0.0522089722        -76.0720876        0.962020963        -155.073936        0.248827611        -65.5999151       0.0411527357         96.2593657
                      0.962020963        -155.073936       0.0522089722        -76.0720876       0.0411527357         96.2593657        0.248827611        -65.5999151
                      0.248827611        -65.5999151       0.0411527357         96.2593657       0.0522089722        -76.0720876        0.962020963        -155.073936
                     0.0411527357         96.2593657        0.248827611        -65.5999151        0.962020963        -155.073936       0.0522089722        -76.0720876

3.09e+09       0.051982265          -76.66008        0.961888499        -155.577335        0.249339531        -66.1003548       0.0411748106         95.8135376
                      0.961888499        -155.577335        0.051982265          -76.66008       0.0411748106         95.8135376        0.249339531        -66.1003548
                      0.249339531        -66.1003548       0.0411748106         95.8135376        0.051982265          -76.66008        0.961888499        -155.577335
                     0.0411748106         95.8135376        0.249339531        -66.1003548        0.961888499        -155.577335        0.051982265          -76.66008

3.1e+09      0.0517521161        -77.2495004        0.961756531        -156.080756        0.249849045        -66.6007872       0.0411963125         95.3692988
                      0.961756531        -156.080756       0.0517521161        -77.2495004       0.0411963125         95.3692988        0.249849045        -66.6007872
                      0.249849045        -66.6007872       0.0411963125         95.3692988       0.0517521161        -77.2495004        0.961756531        -156.080756
                     0.0411963125         95.3692988        0.249849045        -66.6007872        0.961756531        -156.080756       0.0517521161        -77.2495004

3.11e+09      0.0515185236        -77.8403884        0.961625061          -156.5842        0.250356149        -67.1012127       0.0412172528          94.926662
                      0.961625061          -156.5842       0.0515185236        -77.8403884       0.0412172528          94.926662        0.250356149        -67.1012127
                      0.250356149        -67.1012127       0.0412172528          94.926662       0.0515185236        -77.8403884        0.961625061          -156.5842
                     0.0412172528          94.926662        0.250356149        -67.1012127        0.961625061          -156.5842       0.0515185236        -77.8403884

3.12e+09      0.0512814858        -78.4327854        0.961494092        -157.087668        0.250860838        -67.6016317       0.0412376428         94.4856398
                      0.961494092        -157.087668       0.0512814858        -78.4327854       0.0412376428         94.4856398        0.250860838        -67.6016317
                      0.250860838        -67.6016317       0.0412376428         94.4856398       0.0512814858        -78.4327854        0.961494092        -157.087668
                     0.0412376428         94.4856398        0.250860838        -67.6016317        0.961494092        -157.087668       0.0512814858        -78.4327854

3.13e+09      0.0510410012        -79.0267339        0.961363625        -157.591158        0.251363109        -68.1020448       0.0412574943         94.0462448
                      0.961363625        -157.591158       0.0510410012        -79.0267339       0.0412574943         94.0462448        0.251363109        -68.1020448
                      0.251363109        -68.1020448       0.0412574943         94.0462448       0.0510410012        -79.0267339        0.961363625        -157.591158
                     0.0412574943         94.0462448        0.251363109        -68.1020448        0.961363625        -157.591158       0.0510410012        -79.0267339

3.14e+09      0.0507970688        -79.6222779        0.961233663        -158.094673        0.251862958        -68.6024524       0.0412768194         93.6084896
                      0.961233663        -158.094673       0.0507970688        -79.6222779       0.0412768194         93.6084896        0.251862958        -68.6024524
                      0.251862958        -68.6024524       0.0412768194         93.6084896       0.0507970688        -79.6222779        0.961233663        -158.094673
                     0.0412768194         93.6084896        0.251862958        -68.6024524        0.961233663        -158.094673       0.0507970688        -79.6222779

3.15e+09      0.0505496876         -80.219463        0.961104208        -158.598212        0.252360381        -69.1028549       0.0412956304         93.1723869
                      0.961104208        -158.598212       0.0505496876         -80.219463       0.0412956304         93.1723869        0.252360381        -69.1028549
                      0.252360381        -69.1028549       0.0412956304         93.1723869       0.0505496876         -80.219463        0.961104208        -158.598212
                     0.0412956304         93.1723869        0.252360381        -69.1028549        0.961104208        -158.598212       0.0505496876         -80.219463

3.16e+09      0.0502988571        -80.8183365        0.960975262        -159.101777        0.252855372        -69.6032528       0.0413139397         92.7379491
                      0.960975262        -159.101777       0.0502988571        -80.8183365       0.0413139397         92.7379491        0.252855372        -69.6032528
                      0.252855372        -69.6032528       0.0413139397         92.7379491       0.0502988571        -80.8183365        0.960975262        -159.101777
                     0.0413139397         92.7379491        0.252855372        -69.6032528        0.960975262        -159.101777       0.0502988571        -80.8183365

3.17e+09      0.0500445769        -81.4189472        0.960846825        -159.605366        0.253347929        -70.1036466         0.04133176         92.3051888
                      0.960846825        -159.605366       0.0500445769        -81.4189472         0.04133176         92.3051888        0.253347929        -70.1036466
                      0.253347929        -70.1036466         0.04133176         92.3051888       0.0500445769        -81.4189472        0.960846825        -159.605366
                       0.04133176         92.3051888        0.253347929        -70.1036466        0.960846825        -159.605366       0.0500445769        -81.4189472

3.18e+09      0.0497868472        -82.0213457        0.960718901        -160.108981        0.253838047        -70.6040368       0.0413491044         91.8741185
                      0.960718901        -160.108981       0.0497868472        -82.0213457       0.0413491044         91.8741185        0.253838047        -70.6040368
                      0.253838047        -70.6040368       0.0413491044         91.8741185       0.0497868472        -82.0213457        0.960718901        -160.108981
                     0.0413491044         91.8741185        0.253838047        -70.6040368        0.960718901        -160.108981       0.0497868472        -82.0213457

3.19e+09      0.0495256684        -82.6255845        0.960591491        -160.612622        0.254325721        -71.1044237       0.0413659862         91.4447505
                      0.960591491        -160.612622       0.0495256684        -82.6255845       0.0413659862         91.4447505        0.254325721        -71.1044237
                      0.254325721        -71.1044237       0.0413659862         91.4447505       0.0495256684        -82.6255845        0.960591491        -160.612622
                     0.0413659862         91.4447505        0.254325721        -71.1044237        0.960591491        -160.612622       0.0495256684        -82.6255845

3.2e+09       0.049261041        -83.2317179        0.960464596         -161.11629        0.254810948        -71.6048078       0.0413824189         91.0170974
                      0.960464596         -161.11629        0.049261041        -83.2317179       0.0413824189         91.0170974        0.254810948        -71.6048078
                      0.254810948        -71.6048078       0.0413824189         91.0170974        0.049261041        -83.2317179        0.960464596         -161.11629
                     0.0413824189         91.0170974        0.254810948        -71.6048078        0.960464596         -161.11629        0.049261041        -83.2317179

3.21e+09      0.0489929663        -83.8398023        0.960338218        -161.619985        0.255293723        -72.1051897       0.0413984163         90.5911715
                      0.960338218        -161.619985       0.0489929663        -83.8398023       0.0413984163         90.5911715        0.255293723        -72.1051897
                      0.255293723        -72.1051897       0.0413984163         90.5911715       0.0489929663        -83.8398023        0.960338218        -161.619985
                     0.0413984163         90.5911715        0.255293723        -72.1051897        0.960338218        -161.619985       0.0489929663        -83.8398023

3.22e+09      0.0487214457        -84.4498961        0.960212359        -162.123707        0.255774042        -72.6055697       0.0414139925         90.1669849
                      0.960212359        -162.123707       0.0487214457        -84.4498961       0.0414139925         90.1669849        0.255774042        -72.6055697
                      0.255774042        -72.6055697       0.0414139925         90.1669849       0.0487214457        -84.4498961        0.960212359        -162.123707
                     0.0414139925         90.1669849        0.255774042        -72.6055697        0.960212359        -162.123707       0.0487214457        -84.4498961

3.23e+09      0.0484464809          -85.06206        0.960087019        -162.627456          0.2562519        -73.1059482       0.0414291618         89.7445499
                      0.960087019        -162.627456       0.0484464809          -85.06206       0.0414291618         89.7445499          0.2562519        -73.1059482
                        0.2562519        -73.1059482       0.0414291618         89.7445499       0.0484464809          -85.06206        0.960087019        -162.627456
                     0.0414291618         89.7445499          0.2562519        -73.1059482        0.960087019        -162.627456       0.0484464809          -85.06206

3.24e+09      0.0481680741        -85.6763569          0.9599622        -163.131234        0.256727293        -73.6063258       0.0414439388         89.3238786
                        0.9599622        -163.131234       0.0481680741        -85.6763569       0.0414439388         89.3238786        0.256727293        -73.6063258
                      0.256727293        -73.6063258       0.0414439388         89.3238786       0.0481680741        -85.6763569          0.9599622        -163.131234
                     0.0414439388         89.3238786        0.256727293        -73.6063258          0.9599622        -163.131234       0.0481680741        -85.6763569

3.25e+09      0.0478862281         -86.292852        0.959837904        -163.635041        0.257200217        -74.1067029       0.0414583384         88.9049831
                      0.959837904        -163.635041       0.0478862281         -86.292852       0.0414583384         88.9049831        0.257200217        -74.1067029
                      0.257200217        -74.1067029       0.0414583384         88.9049831       0.0478862281         -86.292852        0.959837904        -163.635041
                     0.0414583384         88.9049831        0.257200217        -74.1067029        0.959837904        -163.635041       0.0478862281         -86.292852

3.26e+09      0.0476009459        -86.9116131        0.959714131        -164.138877        0.257670667        -74.6070799       0.0414723757         88.4878752
                      0.959714131        -164.138877       0.0476009459        -86.9116131       0.0414723757         88.4878752        0.257670667        -74.6070799
                      0.257670667        -74.6070799       0.0414723757         88.4878752       0.0476009459        -86.9116131        0.959714131        -164.138877
                     0.0414723757         88.4878752        0.257670667        -74.6070799        0.959714131        -164.138877       0.0476009459        -86.9116131

3.27e+09      0.0473122308        -87.5327108        0.959590883        -164.642742        0.258138639        -75.1074573       0.0414860662         88.0725669
                      0.959590883        -164.642742       0.0473122308        -87.5327108       0.0414860662         88.0725669        0.258138639        -75.1074573
                      0.258138639        -75.1074573       0.0414860662         88.0725669       0.0473122308        -87.5327108        0.959590883        -164.642742
                     0.0414860662         88.0725669        0.258138639        -75.1074573        0.959590883        -164.642742       0.0473122308        -87.5327108

3.28e+09       0.047020087        -88.1562182         0.95946816        -165.146637        0.258604127        -75.6078355       0.0414994256         87.6590697
                       0.95946816        -165.146637        0.047020087        -88.1562182       0.0414994256         87.6590697        0.258604127        -75.6078355
                      0.258604127        -75.6078355       0.0414994256         87.6590697        0.047020087        -88.1562182         0.95946816        -165.146637
                     0.0414994256         87.6590697        0.258604127        -75.6078355         0.95946816        -165.146637        0.047020087        -88.1562182

3.29e+09      0.0467245188        -88.7822113        0.959345965        -165.650562        0.259067128         -76.108215       0.0415124699         87.2473954
