! Created Tue May  7 22:27:44 2024
# hz S db R 50
! 4 Port Network Data from SP1.SP block
! freq  dbS11  angS11  dbS12  angS12  dbS13  angS13  dbS14  angS14  
!       dbS21  angS21  dbS22  angS22  dbS23  angS23  dbS24  angS24  
!       dbS31  angS31  dbS32  angS32  dbS33  angS33  dbS34  angS34  
!       dbS41  angS41  dbS42  angS42  dbS43  angS43  dbS44  angS44  
!     
3e+09       -126.990339        -40.2926471       -0.304875665        -127.423102        -136.696374         87.1537964        -11.6881616        -37.4231018
                     -0.304875665        -127.423102        -126.990339        -40.2926471        -11.6881616        -37.4231018        -136.696374         87.1537964
                      -136.696374         87.1537964        -11.6881616        -37.4231018        -126.990339        -40.2926471       -0.304875665        -127.423102
                      -11.6881616        -37.4231018        -136.696374         87.1537964       -0.304875665        -127.423102        -126.990339        -40.2926471

3.01e+09       -126.974651        -40.7035885       -0.306218107        -127.839948        -136.679298         86.5601033        -11.6697439        -37.8399483
                     -0.306218107        -127.839948        -126.974651        -40.7035885        -11.6697439        -37.8399483        -136.679298         86.5601033
                      -136.679298         86.5601033        -11.6697439        -37.8399483        -126.974651        -40.7035886       -0.306218107        -127.839948
                      -11.6697439        -37.8399483        -136.679298         86.5601033       -0.306218107        -127.839948        -126.974651        -40.7035886

3.02e+09       -126.959085        -41.1143625       -0.307557339         -128.25674        -136.662347         85.9665196        -11.6514533        -38.2567402
                     -0.307557339         -128.25674        -126.959085        -41.1143625        -11.6514533        -38.2567402        -136.662347         85.9665196
                      -136.662347         85.9665196        -11.6514533        -38.2567402        -126.959085        -41.1143626       -0.307557339         -128.25674
                      -11.6514533        -38.2567402        -136.662347         85.9665196       -0.307557339         -128.25674        -126.959085        -41.1143625

3.03e+09       -126.943639        -41.5249694       -0.308893311        -128.673478        -136.645519         85.3730446        -11.6332893        -38.6734777
                     -0.308893311        -128.673478        -126.943639        -41.5249693        -11.6332893        -38.6734777        -136.645519         85.3730446
                      -136.645519         85.3730446        -11.6332893        -38.6734777        -126.943639        -41.5249694       -0.308893311        -128.673478
                      -11.6332893        -38.6734777        -136.645519         85.3730446       -0.308893311        -128.673478        -126.943639        -41.5249694

3.04e+09       -126.928313        -41.9354095       -0.310225974        -129.090161        -136.628814         84.7796783        -11.6152512        -39.0901609
                     -0.310225974        -129.090161        -126.928313        -41.9354095        -11.6152512        -39.0901609        -136.628814         84.7796783
                      -136.628814         84.7796783        -11.6152512        -39.0901609        -126.928313        -41.9354094       -0.310225974        -129.090161
                      -11.6152512        -39.0901609        -136.628814         84.7796783       -0.310225974        -129.090161        -126.928313        -41.9354094

3.05e+09       -126.913107        -42.3456832       -0.311555276         -129.50679         -136.61223         84.1864202        -11.5973384        -39.5067899
                     -0.311555276         -129.50679        -126.913107        -42.3456832        -11.5973384        -39.5067899         -136.61223         84.1864202
                       -136.61223         84.1864202        -11.5973384        -39.5067899        -126.913107        -42.3456832       -0.311555276         -129.50679
                      -11.5973384        -39.5067899         -136.61223         84.1864202       -0.311555276         -129.50679        -126.913107        -42.3456832

3.06e+09       -126.898019        -42.7557909        -0.31288117        -129.923365        -136.595768         83.5932701        -11.5795503         -39.923365
                      -0.31288117        -129.923365        -126.898019        -42.7557909        -11.5795503         -39.923365        -136.595768         83.5932701
                      -136.595768           83.59327        -11.5795503         -39.923365        -126.898019         -42.755791        -0.31288117        -129.923365
                      -11.5795503         -39.923365        -136.595768         83.5932701        -0.31288117        -129.923365        -126.898019         -42.755791

3.07e+09       -126.883049        -43.1657333       -0.314203606        -130.339886        -136.579426         83.0002276        -11.5618861        -40.3398862
                     -0.314203606        -130.339886        -126.883049        -43.1657332        -11.5618861        -40.3398862        -136.579426         83.0002276
                      -136.579426         83.0002276        -11.5618861        -40.3398862        -126.883049        -43.1657332       -0.314203606        -130.339886
                      -11.5618861        -40.3398862        -136.579426         83.0002276       -0.314203606        -130.339886        -126.883049        -43.1657332

3.08e+09       -126.868196        -43.5755104       -0.315522534        -130.756354        -136.563204         82.4072925        -11.5443455        -40.7563537
                     -0.315522534        -130.756354        -126.868196        -43.5755103        -11.5443455        -40.7563537        -136.563204         82.4072926
                      -136.563204         82.4072926        -11.5443455        -40.7563537        -126.868196        -43.5755104       -0.315522534        -130.756354
                      -11.5443455        -40.7563537        -136.563204         82.4072926       -0.315522534        -130.756354        -126.868196        -43.5755104

3.09e+09        -126.85346        -43.9851228       -0.316837905        -131.172768        -136.547102         81.8144644        -11.5269277        -41.1727678
                     -0.316837905        -131.172768         -126.85346        -43.9851228        -11.5269277        -41.1727678        -136.547102         81.8144644
                      -136.547102         81.8144644        -11.5269277        -41.1727678         -126.85346        -43.9851228       -0.316837905        -131.172768
                      -11.5269277        -41.1727678        -136.547102         81.8144644       -0.316837905        -131.172768         -126.85346        -43.9851228

3.1e+09       -126.838839        -44.3945709       -0.318149671        -131.589128        -136.531118         81.2217431        -11.5096321        -41.5891284
                     -0.318149671        -131.589128        -126.838839        -44.3945709        -11.5096321        -41.5891284        -136.531118         81.2217431
                      -136.531118         81.2217431        -11.5096321        -41.5891284        -126.838839        -44.3945709       -0.318149671        -131.589128
                      -11.5096321        -41.5891284        -136.531118         81.2217431       -0.318149671        -131.589128        -126.838839        -44.3945709

3.11e+09       -126.824334        -44.8038553       -0.319457784        -132.005436        -136.515252         80.6291281        -11.4924582        -42.0054359
                     -0.319457784        -132.005436        -126.824334        -44.8038553        -11.4924582        -42.0054359        -136.515252         80.6291281
                      -136.515252         80.6291281        -11.4924582        -42.0054359        -126.824334        -44.8038552       -0.319457784        -132.005436
                      -11.4924582        -42.0054359        -136.515252         80.6291281       -0.319457784        -132.005436        -126.824334        -44.8038552

3.12e+09       -126.809942        -45.2129761       -0.320762194         -132.42169        -136.499504         80.0366192        -11.4754054        -42.4216904
                     -0.320762194         -132.42169        -126.809942        -45.2129761        -11.4754054        -42.4216904        -136.499504         80.0366191
                      -136.499504         80.0366191        -11.4754054        -42.4216904        -126.809942        -45.2129761       -0.320762194         -132.42169
                      -11.4754054        -42.4216904        -136.499504         80.0366191       -0.320762194         -132.42169        -126.809942        -45.2129761

3.13e+09       -126.795665         -45.621934       -0.322062854        -132.837892        -136.483872         79.4442159        -11.4584731         -42.837892
                     -0.322062854        -132.837892        -126.795665         -45.621934        -11.4584731         -42.837892        -136.483872         79.4442159
                      -136.483872         79.4442159        -11.4584731         -42.837892        -126.795665         -45.621934       -0.322062854        -132.837892
                      -11.4584731         -42.837892        -136.483872         79.4442159       -0.322062854        -132.837892        -126.795665         -45.621934

3.14e+09         -126.7815        -46.0307294       -0.323359715        -133.254041        -136.468357         78.8519181        -11.4416607         -43.254041
                     -0.323359715        -133.254041          -126.7815        -46.0307294        -11.4416607         -43.254041        -136.468357         78.8519181
                      -136.468357         78.8519181        -11.4416607         -43.254041          -126.7815        -46.0307294       -0.323359715        -133.254041
                      -11.4416607         -43.254041        -136.468357         78.8519181       -0.323359715        -133.254041          -126.7815        -46.0307294

3.15e+09       -126.767448        -46.4393628        -0.32465273        -133.670137        -136.452957         78.2597252        -11.4249677        -43.6701374
                      -0.32465273        -133.670137        -126.767448        -46.4393628        -11.4249677        -43.6701374        -136.452957         78.2597252
                      -136.452957         78.2597252        -11.4249677        -43.6701374        -126.767448        -46.4393628        -0.32465273        -133.670137
                      -11.4249677        -43.6701374        -136.452957         78.2597252        -0.32465273        -133.670137        -126.767448        -46.4393628

3.16e+09       -126.753508        -46.8478345        -0.32594185        -134.086181        -136.437672         77.6676371        -11.4083936        -44.0861815
                      -0.32594185        -134.086181        -126.753508        -46.8478345        -11.4083936        -44.0861815        -136.437672         77.6676371
                      -136.437672          77.667637        -11.4083936        -44.0861815        -126.753508        -46.8478345        -0.32594185        -134.086181
                      -11.4083936        -44.0861815        -136.437672          77.667637        -0.32594185        -134.086181        -126.753508        -46.8478345

3.17e+09       -126.739678        -47.2561452       -0.327227029        -134.502173        -136.422501         77.0756532        -11.3919377        -44.5021734
                     -0.327227029        -134.502173        -126.739678        -47.2561452        -11.3919377        -44.5021734        -136.422501         77.0756532
                      -136.422501         77.0756532        -11.3919377        -44.5021734        -126.739678        -47.2561452       -0.327227029        -134.502173
                      -11.3919377        -44.5021734        -136.422501         77.0756532       -0.327227029        -134.502173        -126.739678        -47.2561452

3.18e+09       -126.725959        -47.6642952       -0.328508218        -134.918113        -136.407444         76.4837734        -11.3755995        -44.9181133
                     -0.328508218        -134.918113        -126.725959        -47.6642952        -11.3755995        -44.9181133        -136.407444         76.4837734
                      -136.407444         76.4837734        -11.3755995        -44.9181133        -126.725959        -47.6642952       -0.328508218        -134.918113
                      -11.3755995        -44.9181133        -136.407444         76.4837734       -0.328508218        -134.918113        -126.725959        -47.6642952

3.19e+09        -126.71235         -48.072285       -0.329785372        -135.334001          -136.3925         75.8919972        -11.3593785        -45.3340014
                     -0.329785372        -135.334001         -126.71235         -48.072285        -11.3593785        -45.3340014          -136.3925         75.8919971
                        -136.3925         75.8919971        -11.3593785        -45.3340014         -126.71235         -48.072285       -0.329785372        -135.334001
                      -11.3593785        -45.3340014          -136.3925         75.8919971       -0.329785372        -135.334001         -126.71235         -48.072285

3.2e+09        -126.69885        -48.4801151       -0.331058442        -135.749838        -136.377669         75.3003243        -11.3432742        -45.7498379
                     -0.331058442        -135.749838         -126.69885        -48.4801152        -11.3432742        -45.7498379        -136.377669         75.3003243
                      -136.377669         75.3003243        -11.3432742        -45.7498379         -126.69885        -48.4801151       -0.331058442        -135.749838
                      -11.3432742        -45.7498379        -136.377669         75.3003243       -0.331058442        -135.749838         -126.69885        -48.4801151

3.21e+09       -126.685458        -48.8877861       -0.332327382        -136.165623         -136.36295         74.7087542         -11.327286        -46.1656229
                     -0.332327382        -136.165623        -126.685458        -48.8877861         -11.327286        -46.1656229         -136.36295         74.7087542
                       -136.36295         74.7087542         -11.327286        -46.1656229        -126.685458        -48.8877861       -0.332327382        -136.165623
                       -11.327286        -46.1656229         -136.36295         74.7087542       -0.332327382        -136.165623        -126.685458        -48.8877861

3.22e+09       -126.672174        -49.2952984       -0.333592146        -136.581357        -136.348342         74.1172867        -11.3114134        -46.5813566
                     -0.333592146        -136.581357        -126.672174        -49.2952984        -11.3114134        -46.5813566        -136.348342         74.1172867
                      -136.348342         74.1172867        -11.3114134        -46.5813566        -126.672174        -49.2952984       -0.333592146        -136.581357
                      -11.3114134        -46.5813566        -136.348342         74.1172867       -0.333592146        -136.581357        -126.672174        -49.2952984

3.23e+09       -126.658997        -49.7026525       -0.334852687        -136.997039        -136.333845         73.5259214        -11.2956559        -46.9970393
                     -0.334852687        -136.997039        -126.658997        -49.7026525        -11.2956559        -46.9970393        -136.333845         73.5259214
                      -136.333845         73.5259214        -11.2956559        -46.9970393        -126.658997        -49.7026525       -0.334852687        -136.997039
                      -11.2956559        -46.9970393        -136.333845         73.5259214       -0.334852687        -136.997039        -126.658997        -49.7026525

3.24e+09       -126.645927         -50.109849       -0.336108959        -137.412671        -136.319458         72.9346579        -11.2800129        -47.4126711
                     -0.336108959        -137.412671        -126.645927        -50.1098489        -11.2800129        -47.4126711        -136.319458         72.9346579
                      -136.319458         72.9346579        -11.2800129        -47.4126711        -126.645927         -50.109849       -0.336108959        -137.412671
                      -11.2800129        -47.4126711        -136.319458         72.9346579       -0.336108959        -137.412671        -126.645927        -50.1098489

3.25e+09       -126.632963        -50.5168882       -0.337360917        -137.828252        -136.305181         72.3434957         -11.264484        -47.8282521
                     -0.337360917        -137.828252        -126.632963        -50.5168882         -11.264484        -47.8282521        -136.305181         72.3434957
                      -136.305181         72.3434957         -11.264484        -47.8282521        -126.632963        -50.5168882       -0.337360917        -137.828252
                       -11.264484        -47.8282521        -136.305181         72.3434957       -0.337360917        -137.828252        -126.632963        -50.5168882

3.26e+09       -126.620105        -50.9237709       -0.338608513        -138.243783        -136.291014         71.7524347        -11.2490687        -48.2437827
                     -0.338608513        -138.243783        -126.620105        -50.9237709        -11.2490687        -48.2437827        -136.291014         71.7524347
                      -136.291014         71.7524347        -11.2490687        -48.2437827        -126.620105        -50.9237709       -0.338608513        -138.243783
                      -11.2490687        -48.2437827        -136.291014         71.7524347       -0.338608513        -138.243783        -126.620105        -50.9237709

3.27e+09       -126.607351        -51.3304974       -0.339851703        -138.659263        -136.276955         71.1614743        -11.2337664        -48.6592629
                     -0.339851703        -138.659263        -126.607351        -51.3304974        -11.2337664        -48.6592629        -136.276955         71.1614743
                      -136.276955         71.1614742        -11.2337664        -48.6592629        -126.607351        -51.3304974       -0.339851703        -138.659263
                      -11.2337664        -48.6592629        -136.276955         71.1614743       -0.339851703        -138.659263        -126.607351        -51.3304974

3.28e+09       -126.594701        -51.7370684       -0.341090441        -139.074693        -136.263004         70.5706141        -11.2185767        -49.0746929
                     -0.341090441        -139.074693        -126.594701        -51.7370684        -11.2185767        -49.0746929        -136.263004         70.5706141
                      -136.263004         70.5706141        -11.2185767        -49.0746929        -126.594701        -51.7370684       -0.341090441        -139.074693
                      -11.2185767        -49.0746929        -136.263004         70.5706141       -0.341090441        -139.074693        -126.594701        -51.7370684

3.29e+09       -126.582155        -52.1434844       -0.342324683        -139.490073         -136.24916         69.9798539        -11.2034991        -49.4900731
